time,id,iq,vd,vq
1733814149369,0,0,0,0
1733814149444,0,0,0,0
1733814149547,0,0,0,0
1733814149649,0,0,0,0
1733814149751,0,0,0,0
1733814149853,0,0,0,0
1733814149955,0,0,0,0
1733814150057,0,0,0,0
1733814150158,0,0,0,0
1733814150261,0,0,0,0
1733814150362,0,0,0,0
1733814150466,0,9532,64428,9310
1733814150570,0,6032,61738,15821
1733814150675,0,63670,65470,6057
1733814150778,0,3572,63364,13435
1733814150882,0,630,65155,12461
1733814150985,0,1468,62817,12056
1733814151090,0,1176,64142,12865
1733814151194,0,1284,63833,12155
1733814151297,0,1456,64583,13102
1733814151402,0,1346,63930,13074
1733814151507,0,1305,120,13060
1733814151609,0,1303,63812,12758
1733814151712,0,1292,63343,12669
1733814151817,0,1414,64680,13007
1733814151921,0,1145,63654,12641
1733814152025,0,1267,64748,12808
1733814152129,0,958,64388,11986
1733814152232,0,1183,64945,12574
1733814152336,0,1086,63204,12026
1733814152440,0,1107,63415,12540
1733814152544,0,1223,64397,12563
1733814152648,0,1275,64086,13029
1733814152753,0,1387,65008,12710
1733814152856,0,1172,65331,12883
1733814152960,0,1414,64081,12795
1733814153065,0,1112,63138,12127
1733814153168,0,1251,63532,12574
1733814153272,0,1006,63219,11986
1733814153376,0,1172,65063,12982
1733814153481,0,1064,63746,12294
1733814153586,0,1367,102,12902
1733814153688,0,1186,63432,12705
1733814153791,0,973,63748,12420
1733814153895,0,1322,64817,12939
1733814153999,0,1069,64210,12637
1733814154103,0,1406,65196,12563
1733814154208,0,1183,64026,13407
1733814154311,0,1338,64296,12772
1733814154415,0,920,63050,11910
1733814154519,0,1205,64330,12704
1733814154624,0,1139,63793,12402
1733814154727,0,1053,64586,12749
1733814154832,0,1256,64873,12970
1733814154935,0,903,65006,12614
1733814155040,0,1333,63820,12736
1733814155144,0,1223,63318,12809
1733814155248,0,1381,64464,12994
1733814155352,0,1126,63018,12402
1733814155455,0,1242,64629,12590
1733814155559,0,939,64045,12072
1733814155663,0,1267,64845,12600
1733814155767,0,1042,63022,12143
1733814155871,0,1175,63166,12788
1733814155976,0,1229,63788,12626
1733814156079,0,1251,64531,13029
1733814156183,0,1403,63675,12682
1733814156287,0,1170,65194,12682
1733814156391,0,1408,64085,12938
1733814156495,0,1123,62816,12394
1733814156599,0,1292,63223,12715
1733814156703,0,1039,63614,12055
1733814156807,0,1205,64771,12807
1733814156911,0,1129,64244,12140
1733814157015,0,1395,65496,12922
1733814157119,0,1309,64139,12634
1733814157223,0,1338,63928,13132
1733814157327,0,1382,63177,12495
1733814157432,0,1268,64264,12731
1733814157535,0,1428,63953,12860
1733814157639,0,1127,63895,12284
1733814157743,0,1404,64770,12679
1733814157847,0,1059,64973,12512
1733814157951,0,1467,63933,12994
1733814158055,0,1184,63928,12362
1733814158159,0,1510,64657,13051
1733814158263,0,1415,63473,12729
1733814158368,0,1333,414,13065
1733814158471,0,1482,63616,12866
1733814158575,0,1732,63664,12282
1733814158679,0,2698,64356,13354
1733814158782,0,2460,64812,13476
1733814158886,0,2002,64740,13017
1733814158991,0,2105,63911,13187
1733814159094,0,1634,64592,12662
1733814159197,0,1616,62934,12707
1733814159303,0,1642,64048,12680
1733814159407,0,1713,64056,12862
1733814159510,0,1319,64465,12925
1733814159614,0,1704,65462,12799
1733814159718,0,1468,64403,12552
1733814159822,0,1712,64024,12996
1733814159926,0,1298,62897,12422
1733814160030,0,1328,63731,12694
1733814160134,0,1088,63223,12066
1733814160238,0,1433,64751,13158
1733814160342,0,1143,64166,12518
1733814160446,0,1430,65353,12919
1733814160550,0,1249,64024,12692
1733814160654,0,1371,63727,13081
1733814160758,0,1390,63004,12430
1733814160862,0,1252,64218,12681
1733814160966,0,1447,63986,12946
1733814161070,0,1154,64372,12276
1733814161174,0,1333,64900,12600
1733814161278,0,988,65004,12361
1733814161382,0,1412,64098,12771
1733814161486,0,1157,62993,12596
1733814161590,0,1455,64397,13014
1733814161694,0,1376,63616,12652
1733814161798,0,1330,65437,12933
1733814161902,0,1034,64395,12346
1733814162006,0,1341,64942,11915
1733814162110,0,1096,63540,12141
1733814162214,0,1293,64297,12407
1733814162318,0,1368,64552,12743
1733814162422,0,1067,64378,12642
1733814162526,0,1488,65308,12811
1733814162630,0,1209,64678,12617
1733814162734,0,1512,64240,11529
1733814162838,0,1216,63280,12524
1733814162942,0,1312,64658,12952
1733814163046,0,1118,63817,12305
1733814163150,0,1271,64603,12742
1733814163254,0,1195,64226,12298
1733814163358,0,1197,65051,12569
1733814163462,0,1298,63181,12589
1733814163566,0,1407,63730,13243
1733814163670,0,1393,64806,12816
1733814163774,0,1257,64297,12793
1733814163878,0,1436,63805,12747
1733814163982,0,1113,64178,12127
1733814164086,0,1363,65055,12820
1733814164190,0,982,64633,12463
1733814164294,0,1388,63998,13074
1733814164398,0,1077,63409,12090
1733814164502,0,1419,64110,12885
1733814164606,0,1344,63536,12633
1733814164711,0,1237,266,12770
1733814164813,0,1366,63544,12872
1733814164917,0,1099,62791,12553
1733814165020,0,1398,64725,12976
1733814165125,0,1300,63611,12735
1733814165229,0,1253,64059,12524
1733814165333,0,969,64225,12077
1733814165437,0,1237,65026,12546
1733814165541,0,1064,63815,11876
1733814165645,0,1126,63416,12512
1733814165749,0,1248,64128,12578
1733814165853,0,944,64907,12837
1733814165957,0,1376,65340,12768
1733814166061,0,1189,64493,12501
1733814166164,0,1414,63911,12955
1733814166268,0,1120,62817,12571
1733814166373,0,1223,64016,12388
1733814166476,0,1001,63845,12072
1733814166580,0,1191,64622,12968
1733814166685,0,1064,64486,12138
1733814166789,0,1387,64840,12658
1733814166893,0,1197,63972,12610
1733814166997,0,1267,63768,12837
1733814167101,0,1365,62812,12529
1733814167205,0,1200,64382,12739
1733814167309,0,1370,63962,12746
1733814167412,0,1047,64359,12459
1733814167517,0,1322,64986,12773
1733814167621,0,903,64938,12430
1733814167725,0,1327,63869,13094
1733814167828,0,1093,63274,12363
1733814167933,0,1305,64644,12865
1733814168036,0,1259,63426,12378
1733814168141,0,1215,34,12777
1733814168244,0,1314,63791,12733
1733814168348,0,1237,63327,12689
1733814168452,0,1322,64909,12835
1733814168556,0,1112,63694,12641
1733814168660,0,1248,64223,12376
1733814168764,0,881,64403,11976
1733814168868,0,1245,64850,12673
1733814168972,0,1064,62862,12156
1733814169076,0,1109,63545,12487
1733814169180,0,1221,63991,12546
1733814169284,0,1242,64577,13096
1733814169388,0,1378,65101,12804
1733814169492,0,1161,65121,12647
1733814169596,0,1406,64111,12654
1733814169700,0,1107,63162,12095
1733814169804,0,1226,63485,12706
1733814169907,0,1001,64107,12053
1733814170011,0,1142,64963,12843
1733814170115,0,1064,64303,12590
1733814170221,0,1392,120,12822
1733814170323,0,1178,63553,12730
1733814170427,0,1036,64168,12446
1733814170530,0,1289,64174,12808
1733814170634,0,1096,64227,12545
1733814170739,0,1321,249,13035
1733814170841,0,1200,62942,12578
1733814170945,0,1297,64080,12829
1733814171049,0,1303,64914,12756
1733814171153,0,1167,63852,12730
1733814171258,0,1395,65046,12847
1733814171361,0,1047,64474,12643
1733814171466,0,1305,64505,12739
1733814171569,0,930,62660,11934
1733814171674,0,1194,65417,12080
1733814171777,0,1101,63629,12167
1733814171882,0,1069,64382,12588
1733814171986,0,1237,64708,12525
1733814172091,0,1221,213,12801
1733814172192,0,1283,63963,13063
1733814172297,0,1085,63573,12368
1733814172401,0,1365,64446,13004
1733814172505,0,1270,63510,12399
1733814172609,0,1215,133,13074
1733814172712,0,1297,63580,13023
1733814172815,0,1134,63292,12471
1733814172919,0,1303,64221,12962
1733814173023,0,1112,62838,12030
1733814173127,0,1237,64661,12643
1733814173231,0,961,64333,11765
1733814173335,0,1215,64862,12822
1733814173440,0,1001,63091,11802
1733814173543,0,1101,62892,12842
1733814173648,0,1232,64201,12571
1733814173751,0,1232,64562,13092
1733814173856,0,1395,65090,12703
1733814173960,0,1175,64865,12667
1733814174063,0,1398,64153,12980
1733814174168,0,1117,62799,12453
1733814174271,0,1175,63331,12651
1733814174375,0,1064,63335,12113
1733814174480,0,1175,64712,12845
1733814174582,0,1050,62338,10362
1733814174689,0,1365,154,13046
1733814174791,0,1186,63730,12454
1733814174895,0,973,63826,12473
1733814174998,0,1395,64346,12972
1733814175102,0,1066,64896,13161
1733814175207,0,1362,36,12869
1733814175309,0,1153,63050,12462
1733814175413,0,1308,64098,13023
1733814175517,0,1311,64541,12777
1733814175621,0,1170,63793,12764
1733814175725,0,1400,63972,12582
1733814175829,0,1045,64400,12665
1733814175932,0,1305,64758,12548
1733814176037,0,1017,62326,12068
1733814176142,0,1202,63685,12811
1733814176245,0,1036,62804,12127
1733814176349,0,1384,64715,13105
1733814176453,0,1262,63894,12795
1733814176558,0,1248,78,13053
1733814176660,0,1300,63827,12848
1733814176764,0,1055,63280,12417
1733814176868,0,1365,64330,12956
1733814176972,0,1278,63701,12725
1733814177076,0,1248,65425,12775
1733814177180,0,947,64326,12071
1733814177284,0,1237,64954,12026
1733814177388,0,1064,63610,12248
1733814177492,0,1117,63460,12559
1733814177596,0,1232,64015,12508
1733814177700,0,876,64363,12583
1733814177805,0,1381,65476,12686
1733814177908,0,1194,64531,12094
1733814178012,0,1384,64004,13163
1733814178116,0,1134,63087,12411
1733814178220,0,1210,64866,12081
1733814178324,0,1006,63415,12037
1733814178428,0,1164,64286,12788
1733814178531,0,1042,64633,12229
1733814178636,0,1142,64776,12279
1733814178740,0,1194,64142,12697
1733814178844,0,1319,63784,13366
1733814178948,0,1305,62871,12541
1733814179052,0,1202,64034,12682
1733814179156,0,1359,63990,12712
1733814179260,0,1066,64223,12211
1733814179363,0,1245,64688,12527
1733814179468,0,976,64704,12515
1733814179572,0,1286,64176,12935
1733814179676,0,1071,63151,12449
1733814179780,0,1389,64686,13035
1733814179884,0,1240,63449,12567
1733814179989,0,1234,230,12845
1733814180091,0,0,0,0
1733814180193,0,0,0,0
1733814180295,0,0,0,0
1733814180397,0,0,0,0
1733814180499,0,0,0,0
1733814180601,0,0,0,0
1733814180702,0,0,0,0
1733814180805,0,0,0,0
1733814180907,0,0,0,0
1733814181009,0,0,0,0
1733814181111,0,0,0,0
1733814181212,0,0,0,0
1733814181315,0,0,0,0
1733814181417,0,0,0,0
1733814181519,0,0,0,0
1733814181621,0,0,0,0
1733814181723,0,0,0,0
1733814181825,0,0,0,0
1733814181927,0,0,0,0
1733814182029,0,0,0,0
1733814182131,0,0,0,0
1733814182233,0,0,0,0
1733814182335,0,0,0,0
1733814182437,0,0,0,0
1733814182539,0,0,0,0
1733814182641,0,0,0,0
1733814182743,0,0,0,0
1733814182845,0,0,0,0
1733814182946,0,0,0,0
1733814183049,0,0,0,0
1733814183151,0,0,0,0
1733814183252,0,0,0,0
1733814183355,0,0,0,0
1733814183457,0,0,0,0
1733814183559,0,0,0,0
1733814183661,0,0,0,0
1733814183762,0,0,0,0
1733814183865,0,0,0,0
1733814183967,0,0,0,0
1733814184069,0,0,0,0
1733814184171,0,0,0,0
1733814184273,0,0,0,0
1733814184375,0,0,0,0
1733814184476,0,0,0,0
1733814184578,0,0,0,0
1733814184680,0,0,0,0
1733814184782,0,0,0,0
1733814184885,0,0,0,0
1733814184987,0,0,0,0
1733814185089,0,0,0,0
1733814185191,0,0,0,0
1733814185293,0,0,0,0
1733814185394,0,0,0,0
1733814185497,0,0,0,0
1733814185599,0,0,0,0
1733814185701,0,0,0,0
1733814185802,0,0,0,0
1733814185904,0,0,0,0
1733814186007,0,0,0,0
1733814186108,0,0,0,0
1733814186211,0,0,0,0
1733814186313,0,0,0,0
1733814186415,0,0,0,0
1733814186517,0,0,0,0
1733814186618,0,0,0,0
1733814186721,0,0,0,0
1733814186822,0,0,0,0
1733814186924,0,0,0,0
1733814187027,0,0,0,0
1733814187129,0,0,0,0
1733814187231,0,0,0,0
1733814187332,0,0,0,0
1733814187434,0,0,0,0
1733814187537,0,0,0,0
1733814187638,0,0,0,0
1733814187741,0,0,0,0
1733814187842,0,0,0,0
1733814187944,0,0,0,0
1733814188047,0,0,0,0
1733814188149,0,0,0,0
1733814188251,0,0,0,0
1733814188353,0,0,0,0
1733814188455,0,0,0,0
1733814188557,0,0,0,0
1733814188659,0,0,0,0
1733814188760,0,0,0,0
1733814188863,0,0,0,0
1733814188965,0,0,0,0
1733814189067,0,0,0,0
1733814189169,0,0,0,0
1733814189271,0,0,0,0
1733814189373,0,0,0,0
1733814189684,0,0,0,0
1733814189787,0,0,0,0
1733814189888,0,0,0,0
1733814189990,0,0,0,0
1733814190092,0,0,0,0
1733814190194,0,0,0,0
1733814190296,0,0,0,0
1733814190398,0,0,0,0
1733814190499,0,0,0,0
1733814190601,0,0,0,0
1733814190704,0,0,0,0
1733814190808,0,9532,176,6789
1733814190910,0,9532,61790,16008
1733814191015,0,61704,153,5979
1733814191118,0,2786,63113,10929
1733814191222,0,495,63630,13524
1733814191325,0,1292,63791,12168
1733814191429,0,1243,64268,13003
1733814191533,0,915,63527,12345
1733814191637,0,1190,64530,12425
1733814191742,0,689,64333,12005
1733814191845,0,1125,64995,11951
1733814191949,0,880,64286,12487
1733814192053,0,1280,64302,12686
1733814192157,0,1070,63880,12541
1733814192261,0,1092,65112,13089
1733814192365,0,1247,63787,12401
1733814192469,0,1013,65010,12881
1733814192572,0,1236,64375,12774
1733814192677,0,953,64816,12560
1733814192781,0,1044,63967,12220
1733814192885,0,839,62368,12558
1733814192989,0,1211,65079,13020
1733814193093,0,924,64065,12456
1733814193198,0,1266,0,12828
1733814193300,0,1044,63672,12076
1733814193404,0,1166,63448,12984
1733814193508,0,1130,65043,12690
1733814193612,0,1035,63739,12577
1733814193716,0,1233,64111,12885
1733814193820,0,908,64435,12032
1733814193924,0,1149,64852,12823
1733814194028,0,834,62832,11677
1733814194132,0,1116,63662,12930
1733814194236,0,894,63931,12025
1733814194340,0,1225,63929,12693
1733814194444,0,1114,64757,13501
1733814194549,0,1075,107,12202
1733814194650,0,1155,63416,12808
1733814194754,0,916,63687,12190
1733814194858,0,1236,64720,12840
1733814194962,0,891,64304,12568
1733814195067,0,1103,64202,12247
1733814195171,0,788,64402,12362
1733814195275,0,1081,65031,12387
1733814195379,0,910,62617,11951
1733814195482,0,921,63915,12310
1733814195587,0,1070,63591,12390
1733814195691,0,769,64628,12680
1733814195794,0,1233,65058,12662
1733814195898,0,1027,64989,12728
1733814196003,0,1247,64479,12515
1733814196107,0,950,62801,12295
1733814196211,0,1089,63936,12421
1733814196315,0,850,63302,11896
1733814196419,0,1011,64624,12743
1733814196523,0,921,64534,12205
1733814196628,0,1220,43,13331
1733814196730,0,1041,64114,12146
1733814196834,0,814,62976,12565
1733814196938,0,1220,65097,13087
1733814197042,0,927,63694,12186
1733814197147,0,1200,40,13075
1733814197249,0,1024,63914,12139
1733814197352,0,856,63442,12473
1733814197456,0,1160,64804,12748
1733814197561,0,1022,64009,12478
1733814197666,0,1225,6,12942
1733814197768,0,1033,64220,12563
1733814197872,0,1089,63587,12905
1733814197976,0,1171,63334,12428
1733814198080,0,1041,64433,12580
1733814198184,0,1228,64251,12807
1733814198287,0,886,64422,11985
1733814198392,0,1179,64960,13021
1733814198496,0,806,65201,11915
1733814198599,0,1177,63558,12732
1733814198704,0,883,63973,12280
1733814198807,0,1214,64378,12771
1733814198912,0,1122,63783,12657
1733814199016,0,1064,65180,12132
1733814199119,0,788,64027,13032
1733814199222,0,1103,63893,12439
1733814199327,0,1236,64084,12876
1733814199430,0,964,64151,12471
1733814199535,0,1097,64031,12057
1733814199639,0,796,64242,12152
1733814199742,0,1030,64979,12442
1733814199847,0,880,62532,11890
1733814199951,0,967,64294,12283
1733814200055,0,1095,63763,12430
1733814200159,0,1081,65265,13228
1733814200263,0,1231,65181,12511
1733814200367,0,1027,65248,12659
1733814200471,0,1250,64339,12181
1733814200575,0,894,62714,12242
1733814200678,0,1092,64462,12160
1733814200783,0,839,63064,11848
1733814200886,0,1033,65081,12958
1733814200991,0,902,64170,11868
1733814201094,0,1217,65530,12900
1733814201199,0,1035,64590,12321
1733814201302,0,1125,64454,12223
1733814201407,0,1217,63853,12265
1733814201510,0,1057,63358,12487
1733814201615,0,1206,64439,12779
1733814201719,0,905,64333,12027
1733814201823,0,1111,64735,12603
1733814201927,0,750,64963,12007
1733814202031,0,1155,63743,12808
1733814202134,0,908,63371,12420
1733814202238,0,1220,64183,12811
1733814202342,0,1108,64093,12768
1733814202447,0,1097,65020,12435
1733814202550,0,777,64498,12950
1733814202655,0,1097,65046,12202
1733814202759,0,913,62447,12121
1733814202862,0,910,64777,12052
1733814202967,0,1070,64073,12415
1733814203071,0,728,64729,12664
1733814203174,0,1225,65129,12605
1733814203278,0,1038,64688,12928
1733814203382,0,1241,64534,12343
1733814203486,0,939,63013,12305
1733814203591,0,1086,64276,12302
1733814203694,0,847,63178,11863
1733814203799,0,1019,65072,13028
1733814203902,0,908,64117,11719
1733814204008,0,1217,177,13475
1733814204110,0,1044,64049,12332
1733814204213,0,804,63651,12418
1733814204317,0,1160,65107,12968
1733814204422,0,932,63826,12199
1733814204525,0,1206,65432,12918
1733814204630,0,1038,64218,12266
1733814204734,0,1185,63863,12949
1733814204838,0,766,63959,11390
1733814204942,0,1024,63066,12576
1733814205045,0,932,63305,12220
1733814205150,0,891,64278,12266
1733814205253,0,1122,65297,12849
1733814205357,0,777,64706,12037
1733814205461,0,1166,63499,12923
1733814205565,0,1022,63613,12617
1733814205669,0,1231,62487,12511
1733814205773,0,981,63843,12565
1733814205877,0,1084,64199,12186
1733814205981,0,783,64263,12140
1733814206085,0,1089,64847,12273
1733814206189,0,902,62774,12066
1733814206293,0,1231,60663,15288
1733814206397,0,1081,63912,12564
1733814206501,0,1084,65307,13030
1733814206605,0,1231,63920,12579
1733814206709,0,1013,65370,13143
1733814206813,0,1247,64627,11805
1733814206917,0,956,64797,12691
1733814207021,0,1041,64001,12324
1733814207125,0,899,63138,11982
1733814207229,0,1198,65197,13048
1733814207333,0,927,63914,12313
1733814207438,0,1222,65458,12941
1733814207541,0,1054,64235,12645
1733814207645,0,1111,63449,13285
1733814207749,0,774,63624,11666
1733814207853,0,1057,63178,12510
1733814207957,0,905,64467,12443
1733814208061,0,905,63854,11977
1733814208165,0,1119,65300,13437
1733814208269,0,755,65011,11851
1733814208373,0,1155,63728,12910
1733814208477,0,1089,63736,12432
1733814208581,0,1217,63895,12916
1733814208685,0,970,64344,12486
1733814208789,0,1073,65036,12960
1733814208893,0,815,64387,12172
1733814208997,0,1008,64958,12203
1733814209101,0,888,62625,11675
1733814209205,0,1000,64449,12245
1733814209309,0,1070,63519,12468
1733814209413,0,1089,64784,12773
1733814209517,0,1233,65050,12473
1733814209621,0,1011,64923,12854
1733814209725,0,1236,64391,12434
1733814209829,0,972,62354,12234
1733814209933,0,1089,64258,12258
1733814210037,0,866,63137,11865
1733814210141,0,0,0,0
1733814210244,0,0,0,0
1733814210346,0,0,0,0
1733814210448,0,0,0,0
1733814210551,0,0,0,0
1733814210652,0,0,0,0
1733814210754,0,0,0,0
1733814210856,0,0,0,0
1733814210958,0,0,0,0
1733814211061,0,0,0,0
1733814211162,0,0,0,0
1733814211264,0,0,0,0
1733814211366,0,0,0,0
1733814211468,0,0,0,0
1733814211570,0,0,0,0
1733814211672,0,0,0,0
1733814211774,0,0,0,0
1733814211876,0,0,0,0
1733814211978,0,0,0,0
1733814212080,0,0,0,0
1733814212182,0,0,0,0
1733814212284,0,0,0,0
1733814212386,0,0,0,0
1733814212488,0,0,0,0
1733814212590,0,0,0,0
1733814212692,0,0,0,0
1733814212794,0,0,0,0
1733814212896,0,0,0,0
1733814212998,0,0,0,0
1733814213100,0,0,0,0
1733814213202,0,0,0,0
1733814213304,0,0,0,0
1733814213406,0,0,0,0
1733814213507,0,0,0,0
1733814213610,0,0,0,0
1733814213713,0,0,0,0
1733814213814,0,0,0,0
1733814213916,0,0,0,0
1733814214018,0,0,0,0
1733814214120,0,0,0,0
1733814214222,0,0,0,0
1733814214324,0,0,0,0
1733814214425,0,0,0,0
1733814214528,0,0,0,0
1733814214639,0,0,0,0
1733814214732,0,0,0,0
1733814214834,0,0,0,0
1733814214936,0,0,0,0
1733814215037,0,0,0,0
1733814215140,0,0,0,0
1733814215242,0,0,0,0
1733814215344,0,0,0,0
1733814215446,0,0,0,0
1733814215548,0,0,0,0
1733814215649,0,0,0,0
1733814215752,0,0,0,0
1733814215854,0,0,0,0
1733814215957,0,9532,63462,10794
1733814216061,0,1423,64601,14853
1733814216165,0,65235,64569,4943
1733814216269,0,2099,64148,13226
1733814216373,0,140,64602,11209
1733814216477,0,1368,64236,12230
1733814216581,0,884,65515,12846
1733814216685,0,860,64949,12348
1733814216789,0,1118,63863,12772
1733814216893,0,1067,63746,12257
1733814216997,0,1243,63972,13032
1733814217101,0,963,63801,12372
1733814217205,0,1099,64236,12392
1733814217309,0,812,64542,12437
1733814217413,0,1007,65055,11819
1733814217517,0,907,62446,12001
1733814217621,0,929,64381,12059
1733814217724,0,1072,63881,12507
1733814217829,0,1091,65272,13148
1733814217933,0,1254,64927,12359
1733814218037,0,1051,65135,12878
1733814218140,0,1254,64417,12456
1733814218244,0,991,62412,12183
1733814218349,0,1127,64295,12248
